
**** 08/30/17 10:53:31 ****** PSpice 17.0.0 (March 2014) ****** ID# 0 ********

 ** Profile: "Sin End  - Daul End Freq-Freq Test"  [ F:\Programs\Verilog\FPGA_Group\test_br0101\analog\br0101_ad9286\br0101_ad9286-PS


 ****     CIRCUIT DESCRIPTION


******************************************************************************




** Creating circuit file "Freq Test.cir" 
** WARNING: THIS AUTOMATICALLY GENERATED FILE MAY BE OVERWRITTEN BY SUBSEQUENT SIMULATIONS

*Libraries: 
* Profile Libraries :
* Local Libraries :
.LIB "../../../models/ada4937.lib" 
* From [PSPICE NETLIST] section of G:\Cadence\SPB_Data\cdssetup\OrCAD_PSpice\17.0.0\PSpice.ini file:
.lib "nom.lib" 

*Analysis directives: 
.AC DEC 200 1kHz 1GHz
.OPTIONS ADVCONV
.PROBE64 V(alias(*)) I(alias(*)) W(alias(*)) D(alias(*)) NOISE(alias(*)) 
.INC "..\Sin End  - Daul End Freq.net" 



**** INCLUDING "Sin End  - Daul End Freq.net" ****
* source BR0101_AD9286
X_U1         N01442 N01526 N01434 N01518 N01656 N01468 VO1+ VO1- N01646 ADA4937
+  
V_V4         N01646 0 1.4V
R_R2         N01612 N01622  84.5k TC=0,0 
R_R3         N01518 N01526  84.5k TC=0,0 
R_R6         0 N01546  16.9k TC=0,0 
R_R1         N01622 N01518  84.5k TC=0,0 
R_R7         N01434 N01442  84.5k TC=0,0 
V_V3         0 N01468 0Vdc
V_V2         N01656 0 5V
R_R4         0 N01622  21k TC=0,0 
R_R5         N01546 N01434  84.5k TC=0,0 
R_R9         VO1- N02084  33 TC=0,0 
R_R10         N02084 N02070  100 TC=0,0 
R_R8         VO1+ N02070  33 TC=0,0 
C_C1         N02084 N02070  4.7pF  TC=0,0 
V_Vi         N01612 0 DC 0Vdc AC 1.2V 

**** RESUMING "Freq Test.cir" ****
.END

**** 08/30/17 10:53:31 ****** PSpice 17.0.0 (March 2014) ****** ID# 0 ********

 ** Profile: "Sin End  - Daul End Freq-Freq Test"  [ F:\Programs\Verilog\FPGA_Group\test_br0101\analog\br0101_ad9286\br0101_ad9286-PS


 ****     Diode MODEL PARAMETERS


******************************************************************************




               X_U1.Dx         
          IS   10.000000E-15 


**** 08/30/17 10:53:31 ****** PSpice 17.0.0 (March 2014) ****** ID# 0 ********

 ** Profile: "Sin End  - Daul End Freq-Freq Test"  [ F:\Programs\Verilog\FPGA_Group\test_br0101\analog\br0101_ad9286\br0101_ad9286-PS


 ****     BJT MODEL PARAMETERS


******************************************************************************




               X_U1.QX         
               PNP             
       LEVEL    1            
          IS    1.000000E-15 
          BF  228            
          NF    1            
          BR    1            
          NR    1            
         ISS    0            
          RE    0            
          RC    0            
         CJE    0            
         VJE     .75         
         CJC    0            
         VJC     .75         
         MJC     .33         
        XCJC    1            
         CJS    0            
         VJS     .75         
          KF   10.000000E-12 
          AF    1.07         
          CN    2.2          
           D     .52         


**** 08/30/17 10:53:31 ****** PSpice 17.0.0 (March 2014) ****** ID# 0 ********

 ** Profile: "Sin End  - Daul End Freq-Freq Test"  [ F:\Programs\Verilog\FPGA_Group\test_br0101\analog\br0101_ad9286\br0101_ad9286-PS


 ****     Resistor MODEL PARAMETERS


******************************************************************************




               X_U1.RX1        X_U1.RX2        
  T_Measured   27              27            
   T_Current  -70             -70            
           R    1               1            


**** 08/30/17 10:53:31 ****** PSpice 17.0.0 (March 2014) ****** ID# 0 ********

 ** Profile: "Sin End  - Daul End Freq-Freq Test"  [ F:\Programs\Verilog\FPGA_Group\test_br0101\analog\br0101_ad9286\br0101_ad9286-PS


 ****     SMALL SIGNAL BIAS SOLUTION       TEMPERATURE =   27.000 DEG C


******************************************************************************



 NODE   VOLTAGE     NODE   VOLTAGE     NODE   VOLTAGE     NODE   VOLTAGE


( VO1+)    1.4009  ( VO1-)    1.3968  (N01434)     .8826 (N01442)    1.3968     

(N01468)    0.0000 (N01518)     .8846 (N01526)    1.4009 (N01546)     .1471     

(N01612)    0.0000 (N01622)     .1469 (N01646)    1.4000 (N01656)    5.0000     

(N02070)    1.4001 (N02084)    1.3976 (X_U1.2)     .8846 (X_U1.5)    1.5859     

(X_U1.6)    1.5859 (X_U1.13)    2.4978                   (X_U1.14)    2.5022    

(X_U1.70)    1.3968                   (X_U1.75)    1.4022                       

(X_U1.76)    1.3978                   (X_U1.84)    1.5738                       

(X_U1.85)    1.2198                   (X_U1.98)    2.5000                       

(X_U1.100)    1.3990                  (X_U1.13b)    1.7800                      

(X_U1.13C)    3.2200                  (X_U1.14b)    3.2200                      

(X_U1.14c)    1.7800                  (X_U1.400)    -.6178                      

(X_U1.401)    0.0000                  (X_U1.402)    0.0000                      

(X_U1.70b)    1.4009                  (X_U1.75a)    1.4022                      

(X_U1.76a)    1.3978                  (X_U1.84b)    1.5779                      

(X_U1.85b)    1.2239                  (X_U1.98c)    0.0000                      

(X_U1.98d)    0.0000                  (X_U1.99c)    5.0000                      

(X_U1.99d)    5.0000                  (X_U1.100a)    3.2000                     

(X_U1.100b)    1.8000                 (X_U1.400B)    -.6149                     

(X_U1.401B)    0.0000                 (X_U1.402B)    0.0000                 




    VOLTAGE SOURCE CURRENTS
    NAME         CURRENT

    V_V4         5.559E-06
    V_V3         3.978E-02
    V_V2        -4.082E-02
    V_Vi         1.738E-06
    X_U1.vos    -2.620E-06
    X_U1.Vlim+   1.828E-12
    X_U1.Vlim   -2.206E-08
    X_U1.Vlim-  -2.617E-08
    X_U1.Vlim-B   1.832E-12
    X_U1.VOCMa   1.811E-12
    X_U1.VOCMb  -5.412E-08
    X_U1.VO1    -1.860E-13
    X_U1.VO2    -1.880E-13
    X_U1.VIOUT1  -2.367E-04
    X_U1.VIOUT2  -2.178E-04
    X_U1.VIOUT3  -1.894E-05
    X_U1.VO1b   -1.857E-13
    X_U1.VO2b   -1.883E-13
    X_U1.VIOUTB1  -2.117E-04
    X_U1.VIOUTB2  -2.428E-04
    X_U1.VIOUTB3   3.114E-05
    X_U1.Voffset   5.559E-06
    X_U1.VI1    -6.278E-13
    X_U1.VI2     2.367E-04
    X_U1.VIB1   -6.249E-13
    X_U1.VIB2    2.117E-04
    X_U1.Vfd+   -6.111E-06
    X_U1.Vfd-   -6.085E-06
    X_U1.Vbf1   -2.618E-08
    X_U1.Vbf2   -2.206E-08

    TOTAL POWER DISSIPATION   2.04E-01  WATTS



          JOB CONCLUDED

**** 08/30/17 10:53:31 ****** PSpice 17.0.0 (March 2014) ****** ID# 0 ********

 ** Profile: "Sin End  - Daul End Freq-Freq Test"  [ F:\Programs\Verilog\FPGA_Group\test_br0101\analog\br0101_ad9286\br0101_ad9286-PS


 ****     JOB STATISTICS SUMMARY


******************************************************************************



  Total job time (using Solver 1)   =         .08
