
**** 08/30/17 18:52:45 ****** PSpice 17.0.0 (March 2014) ****** ID# 0 ********

 ** Profile: "Plan A AC-AC Sweep"  [ F:\Programs\Verilog\FPGA_Group\test_br0101\analog\br0101_ad9286\br0101_ad9286-PSpiceFiles\Plan A


 ****     CIRCUIT DESCRIPTION


******************************************************************************




** Creating circuit file "AC Sweep.cir" 
** WARNING: THIS AUTOMATICALLY GENERATED FILE MAY BE OVERWRITTEN BY SUBSEQUENT SIMULATIONS

*Libraries: 
* Profile Libraries :
* Local Libraries :
.LIB "../../../models/ada4937.lib" 
* From [PSPICE NETLIST] section of G:\Cadence\SPB_Data\cdssetup\OrCAD_PSpice\17.0.0\PSpice.ini file:
.lib "nom.lib" 

*Analysis directives: 
.AC DEC 200 10MHz 10GHz
.OPTIONS ADVCONV
.PROBE64 V(alias(*)) I(alias(*)) W(alias(*)) D(alias(*)) NOISE(alias(*)) 
.INC "..\Plan A AC.net" 



**** INCLUDING "Plan A AC.net" ****
* source BR0101_AD9286
V_V2         N03374 0 5V
R_R6         0 N03262  1.13k TC=0,0 
R_R5         N03262 N03148  261 TC=0,0 
R_R1         N03340 N03232  261 TC=0,0 
V_V4         N03364 0 1.4V
R_R7         N03148 N03156  261 TC=0,0 
V_V3         0 N03182 0Vdc
X_U1         N03156 N03240 N03148 N03232 N03374 N03182 VO+ VO- N03364 ADA4937 
R_R3         N03232 N03240  261 TC=0,0 
R_R8         VO+ VO-  1G TC=0,0 
R_R4         0 N03340  10k TC=0,0 
R_R2         N03330 N03340  1.27k TC=0,0 
V_V5         N03330 0 DC 0Vdc AC 3.6V 
.PARAM  x=1

**** RESUMING "AC Sweep.cir" ****
.END

**** 08/30/17 18:52:45 ****** PSpice 17.0.0 (March 2014) ****** ID# 0 ********

 ** Profile: "Plan A AC-AC Sweep"  [ F:\Programs\Verilog\FPGA_Group\test_br0101\analog\br0101_ad9286\br0101_ad9286-PSpiceFiles\Plan A


 ****     Diode MODEL PARAMETERS


******************************************************************************




               X_U1.Dx         
          IS   10.000000E-15 


**** 08/30/17 18:52:45 ****** PSpice 17.0.0 (March 2014) ****** ID# 0 ********

 ** Profile: "Plan A AC-AC Sweep"  [ F:\Programs\Verilog\FPGA_Group\test_br0101\analog\br0101_ad9286\br0101_ad9286-PSpiceFiles\Plan A


 ****     BJT MODEL PARAMETERS


******************************************************************************




               X_U1.QX         
               PNP             
       LEVEL    1            
          IS    1.000000E-15 
          BF  228            
          NF    1            
          BR    1            
          NR    1            
         ISS    0            
          RE    0            
          RC    0            
         CJE    0            
         VJE     .75         
         CJC    0            
         VJC     .75         
         MJC     .33         
        XCJC    1            
         CJS    0            
         VJS     .75         
          KF   10.000000E-12 
          AF    1.07         
          CN    2.2          
           D     .52         


**** 08/30/17 18:52:45 ****** PSpice 17.0.0 (March 2014) ****** ID# 0 ********

 ** Profile: "Plan A AC-AC Sweep"  [ F:\Programs\Verilog\FPGA_Group\test_br0101\analog\br0101_ad9286\br0101_ad9286-PSpiceFiles\Plan A


 ****     Resistor MODEL PARAMETERS


******************************************************************************




               X_U1.RX1        X_U1.RX2        
  T_Measured   27              27            
   T_Current  -70             -70            
           R    1               1            


**** 08/30/17 18:52:45 ****** PSpice 17.0.0 (March 2014) ****** ID# 0 ********

 ** Profile: "Plan A AC-AC Sweep"  [ F:\Programs\Verilog\FPGA_Group\test_br0101\analog\br0101_ad9286\br0101_ad9286-PSpiceFiles\Plan A


 ****     SMALL SIGNAL BIAS SOLUTION       TEMPERATURE =   27.000 DEG C


******************************************************************************



 NODE   VOLTAGE     NODE   VOLTAGE     NODE   VOLTAGE     NODE   VOLTAGE


(  VO+)    1.3957  (  VO-)    1.3929  (N03148)    1.1734 (N03156)    1.3929     

(N03182)    0.0000 (N03232)    1.1753 (N03240)    1.3957 (N03262)     .9532     

(N03330)    0.0000 (N03340)     .9543 (N03364)    1.4000 (N03374)    5.0000     

(X_U1.2)    1.1753 (X_U1.5)    1.8767 (X_U1.6)    1.8767 (X_U1.13)    2.4986    

(X_U1.14)    2.5014                   (X_U1.70)    1.3929                       

(X_U1.75)    1.4014                   (X_U1.76)    1.3986                       

(X_U1.84)    1.5699                   (X_U1.85)    1.2159                       

(X_U1.98)    2.5000                   (X_U1.100)    1.3990                      

(X_U1.13b)    1.7800                  (X_U1.13C)    3.2200                      

(X_U1.14b)    3.2200                  (X_U1.14c)    1.7800                      

(X_U1.400)     .6126                  (X_U1.401)    0.0000                      

(X_U1.402)    0.0000                  (X_U1.70b)    1.3957                      

(X_U1.75a)    1.4014                  (X_U1.76a)    1.3986                      

(X_U1.84b)    1.5727                  (X_U1.85b)    1.2187                      

(X_U1.98c)    0.0000                  (X_U1.98d)    0.0000                      

(X_U1.99c)    5.0000                  (X_U1.99d)    5.0000                      

(X_U1.100a)    3.2000                 (X_U1.100b)    1.8000                     

(X_U1.400B)     .6128                 (X_U1.401B)    0.0000                     

(X_U1.402B)    0.0000                 




    VOLTAGE SOURCE CURRENTS
    NAME         CURRENT

    V_V2        -4.120E-02
    V_V4         5.559E-06
    V_V3         4.100E-02
    V_V5         7.514E-04
    X_U1.vos    -2.620E-06
    X_U1.Vlim+   1.829E-12
    X_U1.Vlim   -2.275E-08
    X_U1.Vlim-  -2.538E-08
    X_U1.Vlim-B   1.831E-12
    X_U1.VOCMa   1.811E-12
    X_U1.VOCMb  -5.412E-08
    X_U1.VO1    -1.813E-13
    X_U1.VO2    -1.927E-13
    X_U1.VIOUT1   1.932E-04
    X_U1.VIOUT2  -6.477E-04
    X_U1.VIOUT3   8.409E-04
    X_U1.VO1b   -1.812E-13
    X_U1.VO2b   -1.927E-13
    X_U1.VIOUTB1   1.948E-04
    X_U1.VIOUTB2  -6.494E-04
    X_U1.VIOUTB3   8.442E-04
    X_U1.Voffset   5.559E-06
    X_U1.VI1     1.932E-04
    X_U1.VI2    -6.226E-13
    X_U1.VIB1    1.948E-04
    X_U1.VIB2   -6.228E-13
    X_U1.Vfd+   -8.442E-04
    X_U1.Vfd-   -8.409E-04
    X_U1.Vbf1   -2.538E-08
    X_U1.Vbf2   -2.275E-08

    TOTAL POWER DISSIPATION   2.06E-01  WATTS



          JOB CONCLUDED

**** 08/30/17 18:52:45 ****** PSpice 17.0.0 (March 2014) ****** ID# 0 ********

 ** Profile: "Plan A AC-AC Sweep"  [ F:\Programs\Verilog\FPGA_Group\test_br0101\analog\br0101_ad9286\br0101_ad9286-PSpiceFiles\Plan A


 ****     JOB STATISTICS SUMMARY


******************************************************************************



  Total job time (using Solver 1)   =         .13
